
SetupTitle, Posi Sweep(4)(1)
PrimitiveTest, I/V Sweep
TestParameter, Context.MainFrame, 4155C
TestParameter, Channel.UnitType, SMU, SMU, SMU
TestParameter, Channel.Unit, SMU3:MP, SMU4:MP, SMU2:MP
TestParameter, Channel.IName, I1, I3, I4
TestParameter, Channel.VName, V1, V3, V4
TestParameter, Channel.Mode, V, V, COMMON
TestParameter, Channel.Func, VAR1, VAR2, CONST
TestParameter, Channel.Index, 
TestParameter, Channel.Time, 
TestParameter, Measurement.Port.Unit, SMU3:MP, SMU4:MP, SMU2:MP
TestParameter, Measurement.Port.SeriesResistor, NONE, NONE, NONE
TestParameter, Measurement.Port.Filter, ON, ON, ON
TestParameter, Measurement.Primary.Locus, Double
TestParameter, Measurement.Primary.Scale, LINEAR
TestParameter, Measurement.Primary.Start, 0
TestParameter, Measurement.Primary.Stop, 20
TestParameter, Measurement.Primary.Step, 0.2
TestParameter, Measurement.Primary.Compliance, 0.02
TestParameter, Measurement.Primary.PowerCompliance, 0
TestParameter, Measurement.Aborting.Condition, CONTINUE AT ANY
TestParameter, Measurement.PostOutput.Value, START
TestParameter, Measurement.PostOutput.Retention, OFF
TestParameter, Measurement.Secondary.Start, 0
TestParameter, Measurement.Secondary.Count, 1
TestParameter, Measurement.Secondary.Step, 0
TestParameter, Measurement.Secondary.Compliance, 0.02
TestParameter, Measurement.Secondary.PowerCompliance, 0
TestParameter, Measurement.Bias.Source, 0, 0, 0
TestParameter, Measurement.Bias.Compliance, 0.02, 0.02, 0.1
TestParameter, Measurement.Monitor.Unit, SMU3:MP, SMU4:MP, SMU2:MP
TestParameter, Measurement.Monitor.Adc, HR ADC, HR ADC, HR ADC
TestParameter, Measurement.Monitor.RangingMode, AUTO, AUTO, AUTO
TestParameter, Measurement.Monitor.RangeBoundary, , , 
TestParameter, Measurement.Monitor.RangeRating, BY FULL RANGE, BY FULL RANGE, BY FULL RANGE
TestParameter, Measurement.Monitor.RangeRatingCoeff, 50, 50, 50
TestParameter, Measurement.Timing.Hold, 0
TestParameter, Measurement.Timing.Delay, 0
TestParameter, Measurement.Adc.HighResolution.AutoZero, OFF
TestParameter, Measurement.Adc.HighResolution.Mode, AUTO
TestParameter, Measurement.Adc.HighResolution.Coeff, 1
TestParameter, Measurement.Ag16440ASelector.SemiconductorRelay.Channel1, DEFAULT
TestParameter, Measurement.Ag16440ASelector.SemiconductorRelay.Channel3, DEFAULT
TestParameter, Function.User.Name, Abs_Id, SQRT_Id, SS, gm, Mobility, Ig, Is
TestParameter, Function.User.Unit, A, A, decade/diV, A/V, Cm2/(Vs), A, A
TestParameter, Function.User.Definition, abs(I1), sqrt(Abs_Id), diff(V3,log(Abs_Id)), delta(Abs_Id)/delta(V3), 2*(70/1000)/0.0000000172575*(delta(SQRT_Id)/delta(V3))^2, I3, I1
TestParameter, Output.Graph.Enabled, true
TestParameter, Output.Graph.XAxis.Data, V1
TestParameter, Output.Graph.XAxis.Scale, Linear
TestParameter, Output.Graph.XAxis.Left, 0
TestParameter, Output.Graph.XAxis.Right, 30
TestParameter, Output.Graph.YAxis.Data, Abs_Id
TestParameter, Output.Graph.YAxis.Scale, Log
TestParameter, Output.Graph.YAxis.Bottom, 0
TestParameter, Output.Graph.YAxis.Top, 0.0001
TestParameter, Output.Graph.YAxis.Group, 
TestParameter, AutoAnalysis.Interpolation, false
TestParameter, AutoAnalysis.Line1.Enabled, false
TestParameter, AutoAnalysis.Line1.Type, 1
TestParameter, AutoAnalysis.Line1.Fix, True
TestParameter, AutoAnalysis.Line1.YAxis, 0
TestParameter, AutoAnalysis.Line1.Point1.Type, 0
TestParameter, AutoAnalysis.Line1.Point1.XY.X, 
TestParameter, AutoAnalysis.Line1.Point1.XY.Y, 
TestParameter, AutoAnalysis.Line1.Point1.Data.Var, 
TestParameter, AutoAnalysis.Line1.Point1.Data.Condition, 
TestParameter, AutoAnalysis.Line1.Point1.Data.Start, false
TestParameter, AutoAnalysis.Line1.Point1.Data.StartVar, 
TestParameter, AutoAnalysis.Line1.Point1.Data.StartCondition, 
TestParameter, AutoAnalysis.Line1.Point2.Type, 0
TestParameter, AutoAnalysis.Line1.Point2.XY.X, 
TestParameter, AutoAnalysis.Line1.Point2.XY.Y, 
TestParameter, AutoAnalysis.Line1.Point2.Data.Var, 
TestParameter, AutoAnalysis.Line1.Point2.Data.Condition, 
TestParameter, AutoAnalysis.Line1.Point2.Data.Start, false
TestParameter, AutoAnalysis.Line1.Point2.Data.StartVar, 
TestParameter, AutoAnalysis.Line1.Point2.Data.StartCondition, 
TestParameter, AutoAnalysis.Line1.GradientExpr, 0
TestParameter, AutoAnalysis.Line2.Enabled, false
TestParameter, AutoAnalysis.Line2.Type, 1
TestParameter, AutoAnalysis.Line2.Fix, True
TestParameter, AutoAnalysis.Line2.YAxis, 0
TestParameter, AutoAnalysis.Line2.Point1.Type, 0
TestParameter, AutoAnalysis.Line2.Point1.XY.X, 
TestParameter, AutoAnalysis.Line2.Point1.XY.Y, 
TestParameter, AutoAnalysis.Line2.Point1.Data.Var, 
TestParameter, AutoAnalysis.Line2.Point1.Data.Condition, 
TestParameter, AutoAnalysis.Line2.Point1.Data.Start, false
TestParameter, AutoAnalysis.Line2.Point1.Data.StartVar, 
TestParameter, AutoAnalysis.Line2.Point1.Data.StartCondition, 
TestParameter, AutoAnalysis.Line2.Point2.Type, 0
TestParameter, AutoAnalysis.Line2.Point2.XY.X, 
TestParameter, AutoAnalysis.Line2.Point2.XY.Y, 
TestParameter, AutoAnalysis.Line2.Point2.Data.Var, 
TestParameter, AutoAnalysis.Line2.Point2.Data.Condition, 
TestParameter, AutoAnalysis.Line2.Point2.Data.Start, false
TestParameter, AutoAnalysis.Line2.Point2.Data.StartVar, 
TestParameter, AutoAnalysis.Line2.Point2.Data.StartCondition, 
TestParameter, AutoAnalysis.Line2.GradientExpr, 0
TestParameter, AutoAnalysis.Marker.Enabled, false
TestParameter, AutoAnalysis.Marker.Data.Var, 
TestParameter, AutoAnalysis.Marker.Data.Condition, 
TestParameter, AutoAnalysis.Marker.Data.Start, false
TestParameter, AutoAnalysis.Marker.Data.StartVar, 
TestParameter, AutoAnalysis.Marker.Data.StartCondition, 
MetaData, TestRecord.EntryPoint, true
MetaData, TestRecord.RecordTime, 10/30/2025 12:36:14
MetaData, TestRecord.TestTarget, 
MetaData, TestRecord.IterationIndex, 1
MetaData, TestRecord.Preservation, true
MetaData, TestRecord.Flag, 
MetaData, TestRecord.Remarks, 
MetaData, TestRecord.LinkKey, d4b27b35-f491-4f84-8a74-88aad32218ad
Dimension1, 202, 202, 202, 202, 202, 202, 202, 202, 202, 202, 202
Dimension2, 1, 1, 1, 1, 1, 1, 1, 1, 1, 1, 1
DataName, V1, V3, I1, I3, Abs_Id, SQRT_Id, SS, gm, Mobility, Ig, Is
DataValue, 0, 0, 6.0000000000000009E-14, 6.8E-14, 6.0000000000000009E-14, 2.4494897427831784E-07, 0, , , 6.8E-14, 6.0000000000000009E-14
DataValue, 0.2, 0, 2.1500000000000002E-13, 4.8000000000000004E-14, 2.1500000000000002E-13, 4.6368092477478522E-07, 0, , , 4.8000000000000004E-14, 2.1500000000000002E-13
DataValue, 0.4, 0, 2.6500000000000003E-13, 1.28E-13, 2.6500000000000003E-13, 5.1478150704935E-07, 0, , , 1.28E-13, 2.6500000000000003E-13
DataValue, 0.6, 0, 3.77E-13, -3.0000000000000002E-15, 3.77E-13, 6.1400325732035011E-07, 0, , , -3.0000000000000002E-15, 3.77E-13
DataValue, 0.8, 0, 4.8100000000000007E-13, 2.3000000000000003E-14, 4.8100000000000007E-13, 6.9354163537598814E-07, 0, , , 2.3000000000000003E-14, 4.8100000000000007E-13
DataValue, 1, 0, 5.7500000000000007E-13, 9.8000000000000012E-14, 5.7500000000000007E-13, 7.5828754440515506E-07, 0, , , 9.8000000000000012E-14, 5.7500000000000007E-13
DataValue, 1.2, 0, 7.1300000000000009E-13, -1.3000000000000001E-14, 7.1300000000000009E-13, 8.4439327330338208E-07, 0, , , -1.3000000000000001E-14, 7.1300000000000009E-13
DataValue, 1.4000000000000001, 0, 8.060000000000001E-13, 7.4E-14, 8.060000000000001E-13, 8.977750274985377E-07, 0, , , 7.4E-14, 8.060000000000001E-13
DataValue, 1.6, 0, 9.1400000000000014E-13, 1.0500000000000001E-13, 9.1400000000000014E-13, 9.5603347221736974E-07, 0, , , 1.0500000000000001E-13, 9.1400000000000014E-13
DataValue, 1.8, 0, 1.132E-12, 8.3000000000000012E-14, 1.132E-12, 1.0639548862616308E-06, 0, , , 8.3000000000000012E-14, 1.132E-12
DataValue, 2, 0, 1.303E-12, 1.17E-13, 1.303E-12, 1.1414902540100814E-06, 0, , , 1.17E-13, 1.303E-12
DataValue, 2.2, 0, 1.462E-12, -3.0000000000000002E-15, 1.462E-12, 1.2091319200153471E-06, 0, , , -3.0000000000000002E-15, 1.462E-12
DataValue, 2.4, 0, 1.684E-12, 5.3E-14, 1.684E-12, 1.2976902558006668E-06, 0, , , 5.3E-14, 1.684E-12
DataValue, 2.6, 0, 1.947E-12, -2.4000000000000002E-14, 1.947E-12, 1.39534941860453E-06, 0, , , -2.4000000000000002E-14, 1.947E-12
DataValue, 2.8000000000000003, 0, 2.165E-12, 6.8E-14, 2.165E-12, 1.4713938969562162E-06, 0, , , 6.8E-14, 2.165E-12
DataValue, 3, 0, 2.389E-12, 2.8E-14, 2.389E-12, 1.5456390264224049E-06, 0, , , 2.8E-14, 2.389E-12
DataValue, 3.2, 0, 2.6640000000000004E-12, 1.12E-13, 2.6640000000000004E-12, 1.6321764610482532E-06, 0, , , 1.12E-13, 2.6640000000000004E-12
DataValue, 3.4, 0, 3.0610000000000004E-12, -5.0000000000000008E-15, 3.0610000000000004E-12, 1.7495713760804388E-06, 0, , , -5.0000000000000008E-15, 3.0610000000000004E-12
DataValue, 3.6, 0, 3.3390000000000002E-12, 4.2000000000000004E-14, 3.3390000000000002E-12, 1.8272930799409272E-06, 0, , , 4.2000000000000004E-14, 3.3390000000000002E-12
DataValue, 3.8000000000000003, 0, 3.726E-12, -4.3000000000000006E-14, 3.726E-12, 1.9302849530574495E-06, 0, , , -4.3000000000000006E-14, 3.726E-12
DataValue, 4, 0, 4.138E-12, 1.0700000000000001E-13, 4.138E-12, 2.0342074623793908E-06, 0, , , 1.0700000000000001E-13, 4.138E-12
DataValue, 4.2, 0, 4.562E-12, 9.2000000000000012E-14, 4.562E-12, 2.135883891975404E-06, 0, , , 9.2000000000000012E-14, 4.562E-12
DataValue, 4.4, 0, 5.103E-12, 6.0000000000000009E-14, 5.103E-12, 2.2589820716420041E-06, 0, , , 6.0000000000000009E-14, 5.103E-12
DataValue, 4.6000000000000005, 0, 5.4970000000000005E-12, 5.6E-14, 5.4970000000000005E-12, 2.3445681905203781E-06, 0, , , 5.6E-14, 5.4970000000000005E-12
DataValue, 4.8, 0, 6.0750000000000007E-12, -8.8E-14, 6.0750000000000007E-12, 2.4647515087732474E-06, 0, , , -8.8E-14, 6.0750000000000007E-12
DataValue, 5, 0, 6.6910000000000005E-12, 9.1E-14, 6.6910000000000005E-12, 2.5866967352204241E-06, 0, , , 9.1E-14, 6.6910000000000005E-12
DataValue, 5.2, 0, 7.51E-12, -2.7000000000000002E-14, 7.51E-12, 2.7404379212089443E-06, 0, , , -2.7000000000000002E-14, 7.51E-12
DataValue, 5.4, 0, 8.152E-12, 7.4E-14, 8.152E-12, 2.8551707479588676E-06, 0, , , 7.4E-14, 8.152E-12
DataValue, 5.6000000000000005, 0, 9.033E-12, 4.0000000000000006E-14, 9.033E-12, 3.0054949675552609E-06, 0, , , 4.0000000000000006E-14, 9.033E-12
DataValue, 5.8, 0, 9.838E-12, -1.2100000000000002E-13, 9.838E-12, 3.136558623714851E-06, 0, , , -1.2100000000000002E-13, 9.838E-12
DataValue, 6, 0, 1.0795000000000002E-11, 4E-15, 1.0795000000000002E-11, 3.2855745311893326E-06, 0, , , 4E-15, 1.0795000000000002E-11
DataValue, 6.2, 0, 1.1714000000000001E-11, 7E-14, 1.1714000000000001E-11, 3.42257213218363E-06, 0, , , 7E-14, 1.1714000000000001E-11
DataValue, 6.4, 0, 1.2872000000000001E-11, -6.1E-14, 1.2872000000000001E-11, 3.5877569594385852E-06, 0, , , -6.1E-14, 1.2872000000000001E-11
DataValue, 6.6000000000000005, 0, 1.4147000000000001E-11, 3.9000000000000004E-14, 1.4147000000000001E-11, 3.7612497922897919E-06, 0, , , 3.9000000000000004E-14, 1.4147000000000001E-11
DataValue, 6.8, 0, 1.5576E-11, 6.1E-14, 1.5576E-11, 3.9466441440798791E-06, 0, , , 6.1E-14, 1.5576E-11
DataValue, 7, 0, 1.6989000000000002E-11, 5.700000000000001E-14, 1.6989000000000002E-11, 4.1217714638247479E-06, 0, , , 5.700000000000001E-14, 1.6989000000000002E-11
DataValue, 7.2, 0, 1.8730000000000003E-11, 7.7E-14, 1.8730000000000003E-11, 4.3278170016764808E-06, 0, , , 7.7E-14, 1.8730000000000003E-11
DataValue, 7.4, 0, 2.036E-11, 2.0000000000000003E-14, 2.036E-11, 4.5122056690713912E-06, 0, , , 2.0000000000000003E-14, 2.036E-11
DataValue, 7.6000000000000005, 0, 2.2449000000000002E-11, 8.3000000000000012E-14, 2.2449000000000002E-11, 4.7380375684454005E-06, 0, , , 8.3000000000000012E-14, 2.2449000000000002E-11
DataValue, 7.8, 0, 2.4456000000000003E-11, 1E-15, 2.4456000000000003E-11, 4.9453007997491921E-06, 0, , , 1E-15, 2.4456000000000003E-11
DataValue, 8, 0, 2.6508000000000003E-11, 3.6000000000000004E-14, 2.6508000000000003E-11, 5.1485920405485615E-06, 0, , , 3.6000000000000004E-14, 2.6508000000000003E-11
DataValue, 8.2, 0, 2.9257000000000004E-11, -2.8E-14, 2.9257000000000004E-11, 5.4089740247111562E-06, 0, , , -2.8E-14, 2.9257000000000004E-11
DataValue, 8.4, 0, 3.2259000000000005E-11, 5.9E-14, 3.2259000000000005E-11, 5.6797006963395535E-06, 0, , , 5.9E-14, 3.2259000000000005E-11
DataValue, 8.6, 0, 3.4748000000000005E-11, -1.24E-13, 3.4748000000000005E-11, 5.8947434210489606E-06, 0, , , -1.24E-13, 3.4748000000000005E-11
DataValue, 8.8, 0, 3.7901E-11, 5E-14, 3.7901E-11, 6.1563788057591128E-06, 0, , , 5E-14, 3.7901E-11
DataValue, 9, 0, 4.1500000000000005E-11, -2.9E-14, 4.1500000000000005E-11, 6.4420493633625631E-06, 0, , , -2.9E-14, 4.1500000000000005E-11
DataValue, 9.2000000000000011, 0, 4.5471E-11, -1.8000000000000002E-14, 4.5471E-11, 6.7432188159661557E-06, 0, , , -1.8000000000000002E-14, 4.5471E-11
DataValue, 9.4, 0, 4.9164000000000003E-11, 1.0200000000000001E-13, 4.9164000000000003E-11, 7.01170450033371E-06, 0, , , 1.0200000000000001E-13, 4.9164000000000003E-11
DataValue, 9.6, 0, 5.3580000000000004E-11, -4.7E-14, 5.3580000000000004E-11, 7.31983606373804E-06, 0, , , -4.7E-14, 5.3580000000000004E-11
DataValue, 9.8, 0, 5.893600000000001E-11, -5.3E-14, 5.893600000000001E-11, 7.6769785723290911E-06, 0, , , -5.3E-14, 5.893600000000001E-11
DataValue, 10, 0, 6.4890000000000008E-11, 9.0000000000000008E-14, 6.4890000000000008E-11, 8.0554329492585314E-06, 0, , , 9.0000000000000008E-14, 6.4890000000000008E-11
DataValue, 10.200000000000001, 0, 7.0176E-11, -1.8000000000000002E-14, 7.0176E-11, 8.377111674079558E-06, 0, , , -1.8000000000000002E-14, 7.0176E-11
DataValue, 10.4, 0, 7.7468E-11, -8.1000000000000008E-14, 7.7468E-11, 8.8015907653105528E-06, 0, , , -8.1000000000000008E-14, 7.7468E-11
DataValue, 10.6, 0, 8.5347000000000008E-11, 6.9000000000000009E-14, 8.5347000000000008E-11, 9.2383440074506861E-06, 0, , , 6.9000000000000009E-14, 8.5347000000000008E-11
DataValue, 10.8, 0, 9.3226E-11, -4.7E-14, 9.3226E-11, 9.6553612050507988E-06, 0, , , -4.7E-14, 9.3226E-11
DataValue, 11, 0, 1.0331500000000001E-10, 7.3E-14, 1.0331500000000001E-10, 1.0164398654126078E-05, 0, , , 7.3E-14, 1.0331500000000001E-10
DataValue, 11.200000000000001, 0, 1.1244300000000001E-10, 7.2000000000000009E-14, 1.1244300000000001E-10, 1.060391437158939E-05, 0, , , 7.2000000000000009E-14, 1.1244300000000001E-10
DataValue, 11.4, 0, 1.22923E-10, 6.4E-14, 1.22923E-10, 1.1087064534853218E-05, 0, , , 6.4E-14, 1.22923E-10
DataValue, 11.6, 0, 1.35305E-10, -1.4E-14, 1.35305E-10, 1.1632067743956789E-05, 0, , , -1.4E-14, 1.35305E-10
DataValue, 11.8, 0, 1.49471E-10, 6.3000000000000009E-14, 1.49471E-10, 1.2225833304932635E-05, 0, , , 6.3000000000000009E-14, 1.49471E-10
DataValue, 12, 0, 1.66203E-10, 2.0000000000000003E-14, 1.66203E-10, 1.2891974247569687E-05, 0, , , 2.0000000000000003E-14, 1.66203E-10
DataValue, 12.200000000000001, 0, 1.8342800000000002E-10, 1E-15, 1.8342800000000002E-10, 1.35435593549111E-05, 0, , , 1E-15, 1.8342800000000002E-10
DataValue, 12.4, 0, 2.0366300000000002E-10, 5E-14, 2.0366300000000002E-10, 1.427105462115537E-05, 0, , , 5E-14, 2.0366300000000002E-10
DataValue, 12.6, 0, 2.23263E-10, -1E-15, 2.23263E-10, 1.4941987819564036E-05, 0, , , -1E-15, 2.23263E-10
DataValue, 12.8, 0, 2.4591600000000003E-10, 1.9E-14, 2.4591600000000003E-10, 1.5681709090529642E-05, 0, , , 1.9E-14, 2.4591600000000003E-10
DataValue, 13, 0, 2.75642E-10, 3.0000000000000002E-15, 2.75642E-10, 1.6602469695801284E-05, 0, , , 3.0000000000000002E-15, 2.75642E-10
DataValue, 13.200000000000001, 0, 3.01778E-10, 8.9000000000000012E-14, 3.01778E-10, 1.7371758690472304E-05, 0, , , 8.9000000000000012E-14, 3.01778E-10
DataValue, 13.4, 0, 3.29169E-10, 2.8E-14, 3.29169E-10, 1.8143015184913449E-05, 0, , , 2.8E-14, 3.29169E-10
DataValue, 13.6, 0, 3.6601200000000003E-10, 3.3000000000000005E-14, 3.6601200000000003E-10, 1.913144009216243E-05, 0, , , 3.3000000000000005E-14, 3.6601200000000003E-10
DataValue, 13.8, 0, 4.0088400000000005E-10, -2.6000000000000003E-14, 4.0088400000000005E-10, 2.0022087803223719E-05, 0, , , -2.6000000000000003E-14, 4.0088400000000005E-10
DataValue, 14, 0, 4.3740400000000004E-10, 4.8000000000000004E-14, 4.3740400000000004E-10, 2.0914205698519846E-05, 0, , , 4.8000000000000004E-14, 4.3740400000000004E-10
DataValue, 14.200000000000001, 0, 4.86294E-10, 1.1E-14, 4.86294E-10, 2.2052074732323941E-05, 0, , , 1.1E-14, 4.86294E-10
DataValue, 14.4, 0, 5.2701600000000008E-10, 5.6E-14, 5.2701600000000008E-10, 2.2956829049326479E-05, 0, , , 5.6E-14, 5.2701600000000008E-10
DataValue, 14.6, 0, 5.70657E-10, 6.6000000000000009E-14, 5.70657E-10, 2.3888428160931811E-05, 0, , , 6.6000000000000009E-14, 5.70657E-10
DataValue, 14.8, 0, 6.26053E-10, 5.5000000000000005E-14, 6.26053E-10, 2.5021051136992627E-05, 0, , , 5.5000000000000005E-14, 6.26053E-10
DataValue, 15, 0, 6.8124700000000008E-10, 1.0000000000000002E-14, 6.8124700000000008E-10, 2.6100708802635994E-05, 0, , , 1.0000000000000002E-14, 6.8124700000000008E-10
DataValue, 15.200000000000001, 0, 7.3989500000000006E-10, 7.8000000000000008E-14, 7.3989500000000006E-10, 2.7201011010622382E-05, 0, , , 7.8000000000000008E-14, 7.3989500000000006E-10
DataValue, 15.4, 0, 7.98228E-10, 5.1000000000000004E-14, 7.98228E-10, 2.8252929051693029E-05, 0, , , 5.1000000000000004E-14, 7.98228E-10
DataValue, 15.6, 0, 8.58854E-10, 3.6000000000000004E-14, 8.58854E-10, 2.9306210945804644E-05, 0, , , 3.6000000000000004E-14, 8.58854E-10
DataValue, 15.8, 0, 9.37368E-10, 1.8600000000000002E-13, 9.37368E-10, 3.0616466157935338E-05, 0, , , 1.8600000000000002E-13, 9.37368E-10
DataValue, 16, 0, 1.02585E-09, 2.7000000000000002E-14, 1.02585E-09, 3.2028893205978879E-05, 0, , , 2.7000000000000002E-14, 1.02585E-09
DataValue, 16.2, 0, 1.10613E-09, -7E-14, 1.10613E-09, 3.3258532739734623E-05, 0, , , -7E-14, 1.10613E-09
DataValue, 16.4, 0, 1.16487E-09, -9.8000000000000012E-14, 1.16487E-09, 3.4130191912733216E-05, 0, , , -9.8000000000000012E-14, 1.16487E-09
DataValue, 16.6, 0, 1.25399E-09, 4.5000000000000004E-14, 1.25399E-09, 3.5411721223346375E-05, 0, , , 4.5000000000000004E-14, 1.25399E-09
DataValue, 16.8, 0, 1.33088E-09, -1.0400000000000001E-13, 1.33088E-09, 3.6481228049505134E-05, 0, , , -1.0400000000000001E-13, 1.33088E-09
DataValue, 17, 0, 1.41655E-09, -1.6E-14, 1.41655E-09, 3.7637082777494859E-05, 0, , , -1.6E-14, 1.41655E-09
DataValue, 17.2, 0, 1.51764E-09, -7E-14, 1.51764E-09, 3.8956899260593112E-05, 0, , , -7E-14, 1.51764E-09
DataValue, 17.400000000000002, 0, 1.61365E-09, -1.17E-13, 1.61365E-09, 4.0170262632947769E-05, 0, , , -1.17E-13, 1.61365E-09
DataValue, 17.6, 0, 1.71254E-09, 3.6000000000000004E-14, 1.71254E-09, 4.1382846687969645E-05, 0, , , 3.6000000000000004E-14, 1.71254E-09
DataValue, 17.8, 0, 1.80952E-09, -1.89E-13, 1.80952E-09, 4.2538453192376426E-05, 0, , , -1.89E-13, 1.80952E-09
DataValue, 18, 0, 1.89519E-09, 6.0000000000000005E-15, 1.89519E-09, 4.3533779987499364E-05, 0, , , 6.0000000000000005E-15, 1.89519E-09
DataValue, 18.2, 0, 1.99662E-09, -1.1400000000000002E-13, 1.99662E-09, 4.4683554021586067E-05, 0, , , -1.1400000000000002E-13, 1.99662E-09
DataValue, 18.400000000000002, 0, 2.10639E-09, 1.8000000000000002E-14, 2.10639E-09, 4.5895424608559833E-05, 0, , , 1.8000000000000002E-14, 2.10639E-09
DataValue, 18.6, 0, 2.20412E-09, -5.700000000000001E-14, 2.20412E-09, 4.694805640279478E-05, 0, , , -5.700000000000001E-14, 2.20412E-09
DataValue, 18.8, 0, 2.31957E-09, 6.0000000000000009E-14, 2.31957E-09, 4.81619144137772E-05, 0, , , 6.0000000000000009E-14, 2.31957E-09
DataValue, 19, 0, 2.45274E-09, -7.1E-14, 2.45274E-09, 4.9525145128510227E-05, 0, , , -7.1E-14, 2.45274E-09
DataValue, 19.2, 0, 2.54966E-09, -1.23E-13, 2.54966E-09, 5.0494158077940069E-05, 0, , , -1.23E-13, 2.54966E-09
DataValue, 19.400000000000002, 0, 2.66382E-09, -5.4000000000000003E-14, 2.66382E-09, 5.1612207858218972E-05, 0, , , -5.4000000000000003E-14, 2.66382E-09
DataValue, 19.6, 0, 2.78386E-09, -4.6000000000000006E-14, 2.78386E-09, 5.2762297144836291E-05, 0, , , -4.6000000000000006E-14, 2.78386E-09
DataValue, 19.8, 0, 2.88487E-09, -1.17E-13, 2.88487E-09, 5.3710985840887337E-05, 0, , , -1.17E-13, 2.88487E-09
