
SetupTitle, Posi Sweep(2)(1)
PrimitiveTest, I/V Sweep
TestParameter, Context.MainFrame, 4155C
TestParameter, Channel.UnitType, SMU, SMU, SMU
TestParameter, Channel.Unit, SMU3:MP, SMU4:MP, SMU2:MP
TestParameter, Channel.IName, I1, I3, I4
TestParameter, Channel.VName, V1, V3, V4
TestParameter, Channel.Mode, V, V, COMMON
TestParameter, Channel.Func, VAR1, VAR2, CONST
TestParameter, Channel.Index, 
TestParameter, Channel.Time, 
TestParameter, Measurement.Port.Unit, SMU3:MP, SMU4:MP, SMU2:MP
TestParameter, Measurement.Port.SeriesResistor, NONE, NONE, NONE
TestParameter, Measurement.Port.Filter, ON, ON, ON
TestParameter, Measurement.Primary.Locus, Double
TestParameter, Measurement.Primary.Scale, LINEAR
TestParameter, Measurement.Primary.Start, 0
TestParameter, Measurement.Primary.Stop, 20
TestParameter, Measurement.Primary.Step, 0.2
TestParameter, Measurement.Primary.Compliance, 0.02
TestParameter, Measurement.Primary.PowerCompliance, 0
TestParameter, Measurement.Aborting.Condition, CONTINUE AT ANY
TestParameter, Measurement.PostOutput.Value, START
TestParameter, Measurement.PostOutput.Retention, OFF
TestParameter, Measurement.Secondary.Start, 3
TestParameter, Measurement.Secondary.Count, 1
TestParameter, Measurement.Secondary.Step, 0
TestParameter, Measurement.Secondary.Compliance, 0.02
TestParameter, Measurement.Secondary.PowerCompliance, 0
TestParameter, Measurement.Bias.Source, 0, 3, 0
TestParameter, Measurement.Bias.Compliance, 0.02, 0.02, 0.1
TestParameter, Measurement.Monitor.Unit, SMU3:MP, SMU4:MP, SMU2:MP
TestParameter, Measurement.Monitor.Adc, HR ADC, HR ADC, HR ADC
TestParameter, Measurement.Monitor.RangingMode, AUTO, AUTO, AUTO
TestParameter, Measurement.Monitor.RangeBoundary, , , 
TestParameter, Measurement.Monitor.RangeRating, BY FULL RANGE, BY FULL RANGE, BY FULL RANGE
TestParameter, Measurement.Monitor.RangeRatingCoeff, 50, 50, 50
TestParameter, Measurement.Timing.Hold, 0
TestParameter, Measurement.Timing.Delay, 0
TestParameter, Measurement.Adc.HighResolution.AutoZero, OFF
TestParameter, Measurement.Adc.HighResolution.Mode, AUTO
TestParameter, Measurement.Adc.HighResolution.Coeff, 1
TestParameter, Measurement.Ag16440ASelector.SemiconductorRelay.Channel1, DEFAULT
TestParameter, Measurement.Ag16440ASelector.SemiconductorRelay.Channel3, DEFAULT
TestParameter, Function.User.Name, Abs_Id, SQRT_Id, SS, gm, Mobility, Ig, Is
TestParameter, Function.User.Unit, A, A, decade/diV, A/V, Cm2/(Vs), A, A
TestParameter, Function.User.Definition, abs(I1), sqrt(Abs_Id), diff(V3,log(Abs_Id)), delta(Abs_Id)/delta(V3), 2*(70/1000)/0.0000000172575*(delta(SQRT_Id)/delta(V3))^2, I3, I1
TestParameter, Output.Graph.Enabled, true
TestParameter, Output.Graph.XAxis.Data, V1
TestParameter, Output.Graph.XAxis.Scale, Linear
TestParameter, Output.Graph.XAxis.Left, 0
TestParameter, Output.Graph.XAxis.Right, 30
TestParameter, Output.Graph.YAxis.Data, Abs_Id
TestParameter, Output.Graph.YAxis.Scale, Log
TestParameter, Output.Graph.YAxis.Bottom, 0
TestParameter, Output.Graph.YAxis.Top, 0.0001
TestParameter, Output.Graph.YAxis.Group, 
TestParameter, AutoAnalysis.Interpolation, false
TestParameter, AutoAnalysis.Line1.Enabled, false
TestParameter, AutoAnalysis.Line1.Type, 1
TestParameter, AutoAnalysis.Line1.Fix, True
TestParameter, AutoAnalysis.Line1.YAxis, 0
TestParameter, AutoAnalysis.Line1.Point1.Type, 0
TestParameter, AutoAnalysis.Line1.Point1.XY.X, 
TestParameter, AutoAnalysis.Line1.Point1.XY.Y, 
TestParameter, AutoAnalysis.Line1.Point1.Data.Var, 
TestParameter, AutoAnalysis.Line1.Point1.Data.Condition, 
TestParameter, AutoAnalysis.Line1.Point1.Data.Start, false
TestParameter, AutoAnalysis.Line1.Point1.Data.StartVar, 
TestParameter, AutoAnalysis.Line1.Point1.Data.StartCondition, 
TestParameter, AutoAnalysis.Line1.Point2.Type, 0
TestParameter, AutoAnalysis.Line1.Point2.XY.X, 
TestParameter, AutoAnalysis.Line1.Point2.XY.Y, 
TestParameter, AutoAnalysis.Line1.Point2.Data.Var, 
TestParameter, AutoAnalysis.Line1.Point2.Data.Condition, 
TestParameter, AutoAnalysis.Line1.Point2.Data.Start, false
TestParameter, AutoAnalysis.Line1.Point2.Data.StartVar, 
TestParameter, AutoAnalysis.Line1.Point2.Data.StartCondition, 
TestParameter, AutoAnalysis.Line1.GradientExpr, 0
TestParameter, AutoAnalysis.Line2.Enabled, false
TestParameter, AutoAnalysis.Line2.Type, 1
TestParameter, AutoAnalysis.Line2.Fix, True
TestParameter, AutoAnalysis.Line2.YAxis, 0
TestParameter, AutoAnalysis.Line2.Point1.Type, 0
TestParameter, AutoAnalysis.Line2.Point1.XY.X, 
TestParameter, AutoAnalysis.Line2.Point1.XY.Y, 
TestParameter, AutoAnalysis.Line2.Point1.Data.Var, 
TestParameter, AutoAnalysis.Line2.Point1.Data.Condition, 
TestParameter, AutoAnalysis.Line2.Point1.Data.Start, false
TestParameter, AutoAnalysis.Line2.Point1.Data.StartVar, 
TestParameter, AutoAnalysis.Line2.Point1.Data.StartCondition, 
TestParameter, AutoAnalysis.Line2.Point2.Type, 0
TestParameter, AutoAnalysis.Line2.Point2.XY.X, 
TestParameter, AutoAnalysis.Line2.Point2.XY.Y, 
TestParameter, AutoAnalysis.Line2.Point2.Data.Var, 
TestParameter, AutoAnalysis.Line2.Point2.Data.Condition, 
TestParameter, AutoAnalysis.Line2.Point2.Data.Start, false
TestParameter, AutoAnalysis.Line2.Point2.Data.StartVar, 
TestParameter, AutoAnalysis.Line2.Point2.Data.StartCondition, 
TestParameter, AutoAnalysis.Line2.GradientExpr, 0
TestParameter, AutoAnalysis.Marker.Enabled, false
TestParameter, AutoAnalysis.Marker.Data.Var, 
TestParameter, AutoAnalysis.Marker.Data.Condition, 
TestParameter, AutoAnalysis.Marker.Data.Start, false
TestParameter, AutoAnalysis.Marker.Data.StartVar, 
TestParameter, AutoAnalysis.Marker.Data.StartCondition, 
MetaData, TestRecord.EntryPoint, true
MetaData, TestRecord.RecordTime, 10/30/2025 12:32:09
MetaData, TestRecord.TestTarget, 
MetaData, TestRecord.IterationIndex, 1
MetaData, TestRecord.Preservation, true
MetaData, TestRecord.Flag, 
MetaData, TestRecord.Remarks, 
MetaData, TestRecord.LinkKey, c4d517ce-a8b7-4603-acdd-151d1d16b5c9
Dimension1, 202, 202, 202, 202, 202, 202, 202, 202, 202, 202, 202
Dimension2, 1, 1, 1, 1, 1, 1, 1, 1, 1, 1, 1
DataName, V1, V3, I1, I3, Abs_Id, SQRT_Id, SS, gm, Mobility, Ig, Is
DataValue, 0, 3, -1.1E-14, 2.1990000000000002E-12, 1.1E-14, 1.0488088481701516E-07, 0, , , 2.1990000000000002E-12, -1.1E-14
DataValue, 0.2, 3, 8.6400000000000005E-13, 9.75E-13, 8.6400000000000005E-13, 9.2951600308978007E-07, 0, , , 9.75E-13, 8.6400000000000005E-13
DataValue, 0.4, 3, 1.8990000000000003E-12, 7.23E-13, 1.8990000000000003E-12, 1.3780420893427022E-06, 0, , , 7.23E-13, 1.8990000000000003E-12
DataValue, 0.6, 3, 3.2020000000000003E-12, 5.3000000000000006E-13, 3.2020000000000003E-12, 1.7894133116750866E-06, 0, , , 5.3000000000000006E-13, 3.2020000000000003E-12
DataValue, 0.8, 3, 4.77E-12, 5.21E-13, 4.77E-12, 2.1840329667841557E-06, 0, , , 5.21E-13, 4.77E-12
DataValue, 1, 3, 6.76E-12, 4.2500000000000006E-13, 6.76E-12, 2.6E-06, 0, , , 4.2500000000000006E-13, 6.76E-12
DataValue, 1.2, 3, 9.172E-12, 2.7E-13, 9.172E-12, 3.0285309970347008E-06, 0, , , 2.7E-13, 9.172E-12
DataValue, 1.4000000000000001, 3, 1.2136E-11, 2.1300000000000003E-13, 1.2136E-11, 3.4836762191684808E-06, 0, , , 2.1300000000000003E-13, 1.2136E-11
DataValue, 1.6, 3, 1.5901E-11, 3.1300000000000003E-13, 1.5901E-11, 3.9876057979695032E-06, 0, , , 3.1300000000000003E-13, 1.5901E-11
DataValue, 1.8, 3, 2.0738000000000003E-11, 2.8900000000000003E-13, 2.0738000000000003E-11, 4.5538994279628091E-06, 0, , , 2.8900000000000003E-13, 2.0738000000000003E-11
DataValue, 2, 3, 2.6986000000000003E-11, 2.05E-13, 2.6986000000000003E-11, 5.1948050974025964E-06, 0, , , 2.05E-13, 2.6986000000000003E-11
DataValue, 2.2, 3, 3.5028E-11, 2.4200000000000003E-13, 3.5028E-11, 5.9184457419156932E-06, 0, , , 2.4200000000000003E-13, 3.5028E-11
DataValue, 2.4, 3, 4.5979000000000004E-11, 3.05E-13, 4.5979000000000004E-11, 6.780781665855346E-06, 0, , , 3.05E-13, 4.5979000000000004E-11
DataValue, 2.6, 3, 6.1602E-11, 2.1600000000000001E-13, 6.1602E-11, 7.8486941589031236E-06, 0, , , 2.1600000000000001E-13, 6.1602E-11
DataValue, 2.8000000000000003, 3, 8.3296E-11, 3.16E-13, 8.3296E-11, 9.1266642317990415E-06, 0, , , 3.16E-13, 8.3296E-11
DataValue, 3, 3, 1.22155E-10, 1.0400000000000001E-13, 1.22155E-10, 1.1052375310312259E-05, 0, , , 1.0400000000000001E-13, 1.22155E-10
DataValue, 3.2, 3, 1.66736E-10, 2.6500000000000003E-13, 1.66736E-10, 1.291262947660158E-05, 0, , , 2.6500000000000003E-13, 1.66736E-10
DataValue, 3.4, 3, 2.3729200000000003E-10, 2.0200000000000002E-13, 2.3729200000000003E-10, 1.5404285118109183E-05, 0, , , 2.0200000000000002E-13, 2.3729200000000003E-10
DataValue, 3.6, 3, 3.6013800000000004E-10, 1.34E-13, 3.6013800000000004E-10, 1.8977302231876903E-05, 0, , , 1.34E-13, 3.6013800000000004E-10
DataValue, 3.8000000000000003, 3, 5.6576600000000007E-10, 2.33E-13, 5.6576600000000007E-10, 2.3785836121524088E-05, 0, , , 2.33E-13, 5.6576600000000007E-10
DataValue, 4, 3, 7.589920000000001E-10, 1.54E-13, 7.589920000000001E-10, 2.7549809436727507E-05, 0, , , 1.54E-13, 7.589920000000001E-10
DataValue, 4.2, 3, 1.12146E-09, 2.2000000000000002E-13, 1.12146E-09, 3.3488206879437425E-05, 0, , , 2.2000000000000002E-13, 1.12146E-09
DataValue, 4.4, 3, 1.48403E-09, 8.3000000000000012E-14, 1.48403E-09, 3.852310994714731E-05, 0, , , 8.3000000000000012E-14, 1.48403E-09
DataValue, 4.6000000000000005, 3, 1.98866E-09, 2.05E-13, 1.98866E-09, 4.4594394266544312E-05, 0, , , 2.05E-13, 1.98866E-09
DataValue, 4.8, 3, 2.50624E-09, 5.9E-14, 2.50624E-09, 5.0062361110918446E-05, 0, , , 5.9E-14, 2.50624E-09
DataValue, 5, 3, 3.28163E-09, 6.2E-14, 3.28163E-09, 5.7285513002852652E-05, 0, , , 6.2E-14, 3.28163E-09
DataValue, 5.2, 3, 4.19628E-09, 1.06E-13, 4.19628E-09, 6.4778700203076E-05, 0, , , 1.06E-13, 4.19628E-09
DataValue, 5.4, 3, 5.23584E-09, 1.71E-13, 5.23584E-09, 7.2359104472070415E-05, 0, , , 1.71E-13, 5.23584E-09
DataValue, 5.6000000000000005, 3, 6.24877E-09, -3.3000000000000005E-14, 6.24877E-09, 7.9049161918391016E-05, 0, , , -3.3000000000000005E-14, 6.24877E-09
DataValue, 5.8, 3, 7.61881E-09, 5.3E-14, 7.61881E-09, 8.7285794949693843E-05, 0, , , 5.3E-14, 7.61881E-09
DataValue, 6, 3, 9.28588E-09, 1.57E-13, 9.28588E-09, 9.636327101131426E-05, 0, , , 1.57E-13, 9.28588E-09
DataValue, 6.2, 3, 1.097484E-08, 6.8E-14, 1.097484E-08, 0.00010476087055766576, 0, , , 6.8E-14, 1.097484E-08
DataValue, 6.4, 3, 1.2644899999999998E-08, 1.9200000000000002E-13, 1.2644899999999998E-08, 0.00011244954424096169, 0, , , 1.9200000000000002E-13, 1.2644899999999998E-08
DataValue, 6.6000000000000005, 3, 1.41418E-08, -6.6000000000000009E-14, 1.41418E-08, 0.00011891930036793859, 0, , , -6.6000000000000009E-14, 1.41418E-08
DataValue, 6.8, 3, 1.53417E-08, -3.6000000000000004E-14, 1.53417E-08, 0.00012386161633048392, 0, , , -3.6000000000000004E-14, 1.53417E-08
DataValue, 7, 3, 1.5928399999999997E-08, -7E-15, 1.5928399999999997E-08, 0.00012620776521276333, 0, , , -7E-15, 1.5928399999999997E-08
DataValue, 7.2, 3, 1.60712E-08, -4.35E-13, 1.60712E-08, 0.00012677223670820042, 0, , , -4.35E-13, 1.60712E-08
DataValue, 7.4, 3, 1.6074399999999997E-08, -4.9000000000000006E-14, 1.6074399999999997E-08, 0.00012678485713995974, -0, , , -4.9000000000000006E-14, 1.6074399999999997E-08
DataValue, 7.6000000000000005, 3, 1.6069399999999998E-08, -5.22E-13, 1.6069399999999998E-08, 0.00012676513716318062, -0, , , -5.22E-13, 1.6069399999999998E-08
DataValue, 7.8, 3, 1.6062399999999997E-08, -3.3400000000000004E-13, 1.6062399999999997E-08, 0.00012673752404083013, -0, , , -3.3400000000000004E-13, 1.6062399999999997E-08
DataValue, 8, 3, 1.60515E-08, -4.77E-13, 1.60515E-08, 0.00012669451448267205, -0, , , -4.77E-13, 1.60515E-08
DataValue, 8.2, 3, 1.6048E-08, -3.8500000000000003E-13, 1.6048E-08, 0.00012668070097690491, -0, , , -3.8500000000000003E-13, 1.6048E-08
DataValue, 8.4, 3, 1.60415E-08, -3.41E-13, 1.60415E-08, 0.00012665504332635158, -0, , , -3.41E-13, 1.60415E-08
DataValue, 8.6, 3, 1.60382E-08, -6.0400000000000005E-13, 1.60382E-08, 0.00012664201514505364, -0, , , -6.0400000000000005E-13, 1.60382E-08
DataValue, 8.8, 3, 1.6027599999999998E-08, -4.6100000000000006E-13, 1.6027599999999998E-08, 0.00012660015797778451, -0, , , -4.6100000000000006E-13, 1.6027599999999998E-08
DataValue, 9, 3, 1.60226E-08, -5.1E-13, 1.60226E-08, 0.00012658040922670458, -0, , , -5.1E-13, 1.60226E-08
DataValue, 9.2000000000000011, 3, 1.6017199999999998E-08, -6.77E-13, 1.6017199999999998E-08, 0.00012655907711420781, -0, , , -6.77E-13, 1.6017199999999998E-08
DataValue, 9.4, 3, 1.6007899999999998E-08, -4.67E-13, 1.6007899999999998E-08, 0.00012652233004493713, -0, , , -4.67E-13, 1.6007899999999998E-08
DataValue, 9.6, 3, 1.6002E-08, -6.81E-13, 1.6002E-08, 0.00012649901185384809, -0, , , -6.81E-13, 1.6002E-08
DataValue, 9.8, 3, 1.5996499999999997E-08, -1.3E-13, 1.5996499999999997E-08, 0.00012647727068528953, -0, , , -1.3E-13, 1.5996499999999997E-08
DataValue, 10, 3, 1.5996E-08, -1.4900000000000002E-13, 1.5996E-08, 0.000126475294030099, -0, , , -1.4900000000000002E-13, 1.5996E-08
DataValue, 10.200000000000001, 3, 1.5985799999999997E-08, -2.2000000000000002E-13, 1.5985799999999997E-08, 0.00012643496351879885, -0, , , -2.2000000000000002E-13, 1.5985799999999997E-08
DataValue, 10.4, 3, 1.5986399999999997E-08, -5.5400000000000006E-13, 1.5986399999999997E-08, 0.00012643733625792658, -0, , , -5.5400000000000006E-13, 1.5986399999999997E-08
DataValue, 10.6, 3, 1.59796E-08, -4.23E-13, 1.59796E-08, 0.0001264104426066138, -0, , , -4.23E-13, 1.59796E-08
DataValue, 10.8, 3, 1.5972699999999997E-08, -4.67E-13, 1.5972699999999997E-08, 0.00012638314761074753, -0, , , -4.67E-13, 1.5972699999999997E-08
DataValue, 11, 3, 1.59728E-08, -4.74E-13, 1.59728E-08, 0.00012638354323249527, -0, , , -4.74E-13, 1.59728E-08
DataValue, 11.200000000000001, 3, 1.59709E-08, -5.0200000000000008E-13, 1.59709E-08, 0.00012637602620750504, -0, , , -5.0200000000000008E-13, 1.59709E-08
DataValue, 11.4, 3, 1.59578E-08, -3.03E-13, 1.59578E-08, 0.00012632418612443144, -0, , , -3.03E-13, 1.59578E-08
DataValue, 11.6, 3, 1.59581E-08, -4.72E-13, 1.59581E-08, 0.00012632537353991872, 0, , , -4.72E-13, 1.59581E-08
DataValue, 11.8, 3, 1.5958999999999998E-08, -5.5200000000000007E-13, 1.5958999999999998E-08, 0.00012632893571941465, 0, , , -5.5200000000000007E-13, 1.5958999999999998E-08
DataValue, 12, 3, 1.5959799999999998E-08, -3.66E-13, 1.5959799999999998E-08, 0.00012633210201686663, -0, , , -3.66E-13, 1.5959799999999998E-08
DataValue, 12.200000000000001, 3, 1.5954299999999998E-08, -5.3100000000000006E-13, 1.5954299999999998E-08, 0.00012631033211895216, -0, , , -5.3100000000000006E-13, 1.5954299999999998E-08
DataValue, 12.4, 3, 1.59542E-08, -5.82E-13, 1.59542E-08, 0.00012630993626789621, -0, , , -5.82E-13, 1.59542E-08
DataValue, 12.6, 3, 1.59518E-08, -5.1E-13, 1.59518E-08, 0.00012630043547034981, -0, , , -5.1E-13, 1.59518E-08
DataValue, 12.8, 3, 1.59504E-08, -4.72E-13, 1.59504E-08, 0.00012629489300838731, -0, , , -4.72E-13, 1.59504E-08
DataValue, 13, 3, 1.59471E-08, -3.9100000000000005E-13, 1.59471E-08, 0.00012628182767128452, -0, , , -3.9100000000000005E-13, 1.59471E-08
DataValue, 13.200000000000001, 3, 1.59397E-08, -5.57E-13, 1.59397E-08, 0.0001262525247272307, -0, , , -5.57E-13, 1.59397E-08
DataValue, 13.4, 3, 1.59413E-08, -3.4900000000000003E-13, 1.59413E-08, 0.00012625886107517364, -0, , , -3.4900000000000003E-13, 1.59413E-08
DataValue, 13.6, 3, 1.59323E-08, -4.7900000000000008E-13, 1.59323E-08, 0.00012622321498044644, -0, , , -4.7900000000000008E-13, 1.59323E-08
DataValue, 13.8, 3, 1.5927799999999998E-08, -4.1900000000000003E-13, 1.5927799999999998E-08, 0.00012620538815755845, -0, , , -4.1900000000000003E-13, 1.5927799999999998E-08
DataValue, 14, 3, 1.5928E-08, -4.5000000000000005E-13, 1.5928E-08, 0.000126206180514268, -0, , , -4.5000000000000005E-13, 1.5928E-08
DataValue, 14.200000000000001, 3, 1.59241E-08, -2.81E-13, 1.59241E-08, 0.00012619072866102327, 0, , , -2.81E-13, 1.59241E-08
DataValue, 14.4, 3, 1.59296E-08, -6.08E-13, 1.59296E-08, 0.00012621251918886652, 0, , , -6.08E-13, 1.59296E-08
DataValue, 14.6, 3, 1.59269E-08, -4.0200000000000005E-13, 1.59269E-08, 0.0001262018224908024, -0, , , -4.0200000000000005E-13, 1.59269E-08
DataValue, 14.8, 3, 1.59241E-08, -3.7000000000000004E-13, 1.59241E-08, 0.00012619072866102327, -0, , , -3.7000000000000004E-13, 1.59241E-08
DataValue, 15, 3, 1.59214E-08, -3.98E-13, 1.59214E-08, 0.00012618003011570414, -0, , , -3.98E-13, 1.59214E-08
DataValue, 15.200000000000001, 3, 1.592E-08, -4.65E-13, 1.592E-08, 0.00012617448236470002, -0, , , -4.65E-13, 1.592E-08
DataValue, 15.4, 3, 1.59093E-08, -4.89E-13, 1.59093E-08, 0.00012613207363712054, -0, , , -4.89E-13, 1.59093E-08
DataValue, 15.6, 3, 1.5906999999999998E-08, -2.12E-13, 1.5906999999999998E-08, 0.00012612295588036303, 0, , , -2.12E-13, 1.5906999999999998E-08
DataValue, 15.8, 3, 1.59113E-08, -2.57E-13, 1.59113E-08, 0.00012614000158553987, -0, , , -2.57E-13, 1.59113E-08
DataValue, 16, 3, 1.59001E-08, -3.07E-13, 1.59001E-08, 0.00012609559865435431, -0, , , -3.07E-13, 1.59001E-08
DataValue, 16.2, 3, 1.59017E-08, -2.7600000000000004E-13, 1.59017E-08, 0.00012610194288749084, 0, , , -2.7600000000000004E-13, 1.59017E-08
DataValue, 16.4, 3, 1.59003E-08, -1.9800000000000002E-13, 1.59003E-08, 0.00012609639170095232, -0, , , -1.9800000000000002E-13, 1.59003E-08
DataValue, 16.6, 3, 1.58949E-08, -2.06E-13, 1.58949E-08, 0.00012607497769184811, -0, , , -2.06E-13, 1.58949E-08
DataValue, 16.8, 3, 1.5890599999999998E-08, -2.48E-13, 1.5890599999999998E-08, 0.00012605792319406186, -0, , , -2.48E-13, 1.5890599999999998E-08
DataValue, 17, 3, 1.5885399999999998E-08, -2.58E-13, 1.5885399999999998E-08, 0.00012603729606747361, -0, , , -2.58E-13, 1.5885399999999998E-08
DataValue, 17.2, 3, 1.58779E-08, -2.0000000000000003E-14, 1.58779E-08, 0.00012600753945697058, -0, , , -2.0000000000000003E-14, 1.58779E-08
DataValue, 17.400000000000002, 3, 1.58809E-08, -3.4600000000000004E-13, 1.58809E-08, 0.000126019442944333, -0, , , -3.4600000000000004E-13, 1.58809E-08
DataValue, 17.6, 3, 1.5875299999999998E-08, -2.48E-13, 1.5875299999999998E-08, 0.00012599722219160228, -0, , , -2.48E-13, 1.5875299999999998E-08
DataValue, 17.8, 3, 1.58725E-08, -1.06E-13, 1.58725E-08, 0.00012598611034554563, -0, , , -1.06E-13, 1.58725E-08
DataValue, 18, 3, 1.5867899999999998E-08, -1.83E-13, 1.5867899999999998E-08, 0.0001259678530419567, 0, , , -1.83E-13, 1.5867899999999998E-08
DataValue, 18.2, 3, 1.58741E-08, -1.42E-13, 1.58741E-08, 0.00012599246009186422, 0, , , -1.42E-13, 1.58741E-08
DataValue, 18.400000000000002, 3, 1.58692E-08, -1.2700000000000001E-13, 1.58692E-08, 0.00012597301298294012, -0, , , -1.2700000000000001E-13, 1.58692E-08
DataValue, 18.6, 3, 1.58673E-08, -5E-14, 1.58673E-08, 0.00012596547145944399, -0, , , -5E-14, 1.58673E-08
DataValue, 18.8, 3, 1.5864599999999998E-08, -3.19E-13, 1.5864599999999998E-08, 0.00012595475378087163, -0, , , -3.19E-13, 1.5864599999999998E-08
DataValue, 19, 3, 1.5856E-08, -7.8000000000000008E-14, 1.5856E-08, 0.00012592060990957756, -0, , , -7.8000000000000008E-14, 1.5856E-08
DataValue, 19.2, 3, 1.58591E-08, 3.0000000000000005E-14, 1.58591E-08, 0.00012593291865116126, -0, , , 3.0000000000000005E-14, 1.58591E-08
DataValue, 19.400000000000002, 3, 1.58527E-08, -3.1E-14, 1.58527E-08, 0.00012590750573337556, -0, , , -3.1E-14, 1.58527E-08
DataValue, 19.6, 3, 1.58538E-08, -1.9600000000000002E-13, 1.58538E-08, 0.00012591187394364362, -0, , , -1.9600000000000002E-13, 1.58538E-08
DataValue, 19.8, 3, 1.5852099999999997E-08, -6.3000000000000009E-14, 1.5852099999999997E-08, 0.00012590512300935175, -0, , , -6.3000000000000009E-14, 1.5852099999999997E-08
DataValue, 20, 3, 1.5849399999999997E-08, -1.2000000000000002E-13, 1.5849399999999997E-08, 0.00012589440019317776, -0, , , -1.2000000000000002E-13, 1.5849399999999997E-08
DataValue, 20, 3, 1.58407E-08, 2.1000000000000002E-14, 1.58407E-08, 0.00012585984268224715, -0, , , 2.1000000000000002E-14, 1.58407E-08
DataValue, 19.8, 3, 1.58342E-08, -4.7E-14, 1.58342E-08, 0.00012583401765818336, -0, , , -4.7E-14, 1.58342E-08
