
SetupTitle, Posi Sweep(3)(1)
PrimitiveTest, I/V Sweep
TestParameter, Context.MainFrame, 4155C
TestParameter, Channel.UnitType, SMU, SMU, SMU
TestParameter, Channel.Unit, SMU3:MP, SMU4:MP, SMU2:MP
TestParameter, Channel.IName, I1, I3, I4
TestParameter, Channel.VName, V1, V3, V4
TestParameter, Channel.Mode, V, V, COMMON
TestParameter, Channel.Func, VAR1, VAR2, CONST
TestParameter, Channel.Index, 
TestParameter, Channel.Time, 
TestParameter, Measurement.Port.Unit, SMU3:MP, SMU4:MP, SMU2:MP
TestParameter, Measurement.Port.SeriesResistor, NONE, NONE, NONE
TestParameter, Measurement.Port.Filter, ON, ON, ON
TestParameter, Measurement.Primary.Locus, Double
TestParameter, Measurement.Primary.Scale, LINEAR
TestParameter, Measurement.Primary.Start, 0
TestParameter, Measurement.Primary.Stop, 20
TestParameter, Measurement.Primary.Step, 0.2
TestParameter, Measurement.Primary.Compliance, 0.02
TestParameter, Measurement.Primary.PowerCompliance, 0
TestParameter, Measurement.Aborting.Condition, CONTINUE AT ANY
TestParameter, Measurement.PostOutput.Value, START
TestParameter, Measurement.PostOutput.Retention, OFF
TestParameter, Measurement.Secondary.Start, 4
TestParameter, Measurement.Secondary.Count, 1
TestParameter, Measurement.Secondary.Step, 0
TestParameter, Measurement.Secondary.Compliance, 0.02
TestParameter, Measurement.Secondary.PowerCompliance, 0
TestParameter, Measurement.Bias.Source, 0, 4, 0
TestParameter, Measurement.Bias.Compliance, 0.02, 0.02, 0.1
TestParameter, Measurement.Monitor.Unit, SMU3:MP, SMU4:MP, SMU2:MP
TestParameter, Measurement.Monitor.Adc, HR ADC, HR ADC, HR ADC
TestParameter, Measurement.Monitor.RangingMode, AUTO, AUTO, AUTO
TestParameter, Measurement.Monitor.RangeBoundary, , , 
TestParameter, Measurement.Monitor.RangeRating, BY FULL RANGE, BY FULL RANGE, BY FULL RANGE
TestParameter, Measurement.Monitor.RangeRatingCoeff, 50, 50, 50
TestParameter, Measurement.Timing.Hold, 0
TestParameter, Measurement.Timing.Delay, 0
TestParameter, Measurement.Adc.HighResolution.AutoZero, OFF
TestParameter, Measurement.Adc.HighResolution.Mode, AUTO
TestParameter, Measurement.Adc.HighResolution.Coeff, 1
TestParameter, Measurement.Ag16440ASelector.SemiconductorRelay.Channel1, DEFAULT
TestParameter, Measurement.Ag16440ASelector.SemiconductorRelay.Channel3, DEFAULT
TestParameter, Function.User.Name, Abs_Id, SQRT_Id, SS, gm, Mobility, Ig, Is
TestParameter, Function.User.Unit, A, A, decade/diV, A/V, Cm2/(Vs), A, A
TestParameter, Function.User.Definition, abs(I1), sqrt(Abs_Id), diff(V3,log(Abs_Id)), delta(Abs_Id)/delta(V3), 2*(70/1000)/0.0000000172575*(delta(SQRT_Id)/delta(V3))^2, I3, I1
TestParameter, Output.Graph.Enabled, true
TestParameter, Output.Graph.XAxis.Data, V1
TestParameter, Output.Graph.XAxis.Scale, Linear
TestParameter, Output.Graph.XAxis.Left, 0
TestParameter, Output.Graph.XAxis.Right, 30
TestParameter, Output.Graph.YAxis.Data, Abs_Id
TestParameter, Output.Graph.YAxis.Scale, Log
TestParameter, Output.Graph.YAxis.Bottom, 0
TestParameter, Output.Graph.YAxis.Top, 0.0001
TestParameter, Output.Graph.YAxis.Group, 
TestParameter, AutoAnalysis.Interpolation, false
TestParameter, AutoAnalysis.Line1.Enabled, false
TestParameter, AutoAnalysis.Line1.Type, 1
TestParameter, AutoAnalysis.Line1.Fix, True
TestParameter, AutoAnalysis.Line1.YAxis, 0
TestParameter, AutoAnalysis.Line1.Point1.Type, 0
TestParameter, AutoAnalysis.Line1.Point1.XY.X, 
TestParameter, AutoAnalysis.Line1.Point1.XY.Y, 
TestParameter, AutoAnalysis.Line1.Point1.Data.Var, 
TestParameter, AutoAnalysis.Line1.Point1.Data.Condition, 
TestParameter, AutoAnalysis.Line1.Point1.Data.Start, false
TestParameter, AutoAnalysis.Line1.Point1.Data.StartVar, 
TestParameter, AutoAnalysis.Line1.Point1.Data.StartCondition, 
TestParameter, AutoAnalysis.Line1.Point2.Type, 0
TestParameter, AutoAnalysis.Line1.Point2.XY.X, 
TestParameter, AutoAnalysis.Line1.Point2.XY.Y, 
TestParameter, AutoAnalysis.Line1.Point2.Data.Var, 
TestParameter, AutoAnalysis.Line1.Point2.Data.Condition, 
TestParameter, AutoAnalysis.Line1.Point2.Data.Start, false
TestParameter, AutoAnalysis.Line1.Point2.Data.StartVar, 
TestParameter, AutoAnalysis.Line1.Point2.Data.StartCondition, 
TestParameter, AutoAnalysis.Line1.GradientExpr, 0
TestParameter, AutoAnalysis.Line2.Enabled, false
TestParameter, AutoAnalysis.Line2.Type, 1
TestParameter, AutoAnalysis.Line2.Fix, True
TestParameter, AutoAnalysis.Line2.YAxis, 0
TestParameter, AutoAnalysis.Line2.Point1.Type, 0
TestParameter, AutoAnalysis.Line2.Point1.XY.X, 
TestParameter, AutoAnalysis.Line2.Point1.XY.Y, 
TestParameter, AutoAnalysis.Line2.Point1.Data.Var, 
TestParameter, AutoAnalysis.Line2.Point1.Data.Condition, 
TestParameter, AutoAnalysis.Line2.Point1.Data.Start, false
TestParameter, AutoAnalysis.Line2.Point1.Data.StartVar, 
TestParameter, AutoAnalysis.Line2.Point1.Data.StartCondition, 
TestParameter, AutoAnalysis.Line2.Point2.Type, 0
TestParameter, AutoAnalysis.Line2.Point2.XY.X, 
TestParameter, AutoAnalysis.Line2.Point2.XY.Y, 
TestParameter, AutoAnalysis.Line2.Point2.Data.Var, 
TestParameter, AutoAnalysis.Line2.Point2.Data.Condition, 
TestParameter, AutoAnalysis.Line2.Point2.Data.Start, false
TestParameter, AutoAnalysis.Line2.Point2.Data.StartVar, 
TestParameter, AutoAnalysis.Line2.Point2.Data.StartCondition, 
TestParameter, AutoAnalysis.Line2.GradientExpr, 0
TestParameter, AutoAnalysis.Marker.Enabled, false
TestParameter, AutoAnalysis.Marker.Data.Var, 
TestParameter, AutoAnalysis.Marker.Data.Condition, 
TestParameter, AutoAnalysis.Marker.Data.Start, false
TestParameter, AutoAnalysis.Marker.Data.StartVar, 
TestParameter, AutoAnalysis.Marker.Data.StartCondition, 
MetaData, TestRecord.EntryPoint, true
MetaData, TestRecord.RecordTime, 10/30/2025 12:34:02
MetaData, TestRecord.TestTarget, 
MetaData, TestRecord.IterationIndex, 1
MetaData, TestRecord.Preservation, true
MetaData, TestRecord.Flag, 
MetaData, TestRecord.Remarks, 
MetaData, TestRecord.LinkKey, a32bb427-5ca2-49b6-bf1e-43a244a5d1f8
Dimension1, 202, 202, 202, 202, 202, 202, 202, 202, 202, 202, 202
Dimension2, 1, 1, 1, 1, 1, 1, 1, 1, 1, 1, 1
DataName, V1, V3, I1, I3, Abs_Id, SQRT_Id, SS, gm, Mobility, Ig, Is
DataValue, 0, 4, -3.9000000000000004E-14, 2.144E-12, 3.9000000000000004E-14, 1.97484176581315E-07, 0, , , 2.144E-12, -3.9000000000000004E-14
DataValue, 0.2, 4, 1.0830000000000001E-12, 1.107E-12, 1.0830000000000001E-12, 1.0406728592598157E-06, 0, , , 1.107E-12, 1.0830000000000001E-12
DataValue, 0.4, 4, 2.4040000000000003E-12, 9.15E-13, 2.4040000000000003E-12, 1.5504837954651445E-06, 0, , , 9.15E-13, 2.4040000000000003E-12
DataValue, 0.6, 4, 3.994E-12, 7.1700000000000008E-13, 3.994E-12, 1.9984994370777292E-06, 0, , , 7.1700000000000008E-13, 3.994E-12
DataValue, 0.8, 4, 6.074E-12, 4.48E-13, 6.074E-12, 2.4645486402179205E-06, 0, , , 4.48E-13, 6.074E-12
DataValue, 1, 4, 8.485E-12, 5.68E-13, 8.485E-12, 2.9129023327259018E-06, 0, , , 5.68E-13, 8.485E-12
DataValue, 1.2, 4, 1.1715000000000002E-11, 5.3100000000000006E-13, 1.1715000000000002E-11, 3.4227182180249664E-06, 0, , , 5.3100000000000006E-13, 1.1715000000000002E-11
DataValue, 1.4000000000000001, 4, 1.5748000000000003E-11, 3.31E-13, 1.5748000000000003E-11, 3.968374982281791E-06, 0, , , 3.31E-13, 1.5748000000000003E-11
DataValue, 1.6, 4, 2.0820000000000002E-11, 3.31E-13, 2.0820000000000002E-11, 4.5628938186199343E-06, 0, , , 3.31E-13, 2.0820000000000002E-11
DataValue, 1.8, 4, 2.7207000000000002E-11, 4.0200000000000005E-13, 2.7207000000000002E-11, 5.2160329753558881E-06, 0, , , 4.0200000000000005E-13, 2.7207000000000002E-11
DataValue, 2, 4, 3.5284E-11, 3.9300000000000004E-13, 3.5284E-11, 5.9400336699382439E-06, 0, , , 3.9300000000000004E-13, 3.5284E-11
DataValue, 2.2, 4, 4.6165E-11, 2.81E-13, 4.6165E-11, 6.7944830561272289E-06, 0, , , 2.81E-13, 4.6165E-11
DataValue, 2.4, 4, 6.0996E-11, 2.91E-13, 6.0996E-11, 7.80999359794872E-06, 0, , , 2.91E-13, 6.0996E-11
DataValue, 2.6, 4, 8.13E-11, 3.3300000000000005E-13, 8.13E-11, 9.01665126307988E-06, 0, , , 3.3300000000000005E-13, 8.13E-11
DataValue, 2.8000000000000003, 4, 1.0841800000000001E-10, 3.0200000000000003E-13, 1.0841800000000001E-10, 1.0412396458068623E-05, 0, , , 3.0200000000000003E-13, 1.0841800000000001E-10
DataValue, 3, 4, 1.443E-10, 1.87E-13, 1.443E-10, 1.2012493496356201E-05, 0, , , 1.87E-13, 1.443E-10
DataValue, 3.2, 4, 1.88357E-10, 3.2000000000000005E-13, 1.88357E-10, 1.3724321476852691E-05, 0, , , 3.2000000000000005E-13, 1.88357E-10
DataValue, 3.4, 4, 2.5923600000000004E-10, 3.42E-13, 2.5923600000000004E-10, 1.6100807433169308E-05, 0, , , 3.42E-13, 2.5923600000000004E-10
DataValue, 3.6, 4, 3.5443700000000004E-10, 2.5200000000000004E-13, 3.5443700000000004E-10, 1.8826497284412734E-05, 0, , , 2.5200000000000004E-13, 3.5443700000000004E-10
DataValue, 3.8000000000000003, 4, 4.9520700000000007E-10, 1.48E-13, 4.9520700000000007E-10, 2.2253246954096385E-05, 0, , , 1.48E-13, 4.9520700000000007E-10
DataValue, 4, 4, 6.4801800000000009E-10, 2.7400000000000004E-13, 6.4801800000000009E-10, 2.5456197673651107E-05, 0, , , 2.7400000000000004E-13, 6.4801800000000009E-10
DataValue, 4.2, 4, 8.9960000000000008E-10, 1.8400000000000002E-13, 8.9960000000000008E-10, 2.9993332592427939E-05, 0, , , 1.8400000000000002E-13, 8.9960000000000008E-10
DataValue, 4.4, 4, 1.20516E-09, 2.2900000000000003E-13, 1.20516E-09, 3.47154144437309E-05, 0, , , 2.2900000000000003E-13, 1.20516E-09
DataValue, 4.6000000000000005, 4, 1.61223E-09, 1.99E-13, 1.61223E-09, 4.0152583976625958E-05, 0, , , 1.99E-13, 1.61223E-09
DataValue, 4.8, 4, 2.22743E-09, 2.0300000000000002E-13, 2.22743E-09, 4.7195656579816752E-05, 0, , , 2.0300000000000002E-13, 2.22743E-09
DataValue, 5, 4, 3.02397E-09, 1.36E-13, 3.02397E-09, 5.4990635566430763E-05, 0, , , 1.36E-13, 3.02397E-09
DataValue, 5.2, 4, 3.89982E-09, 1.17E-13, 3.89982E-09, 6.2448538813970664E-05, 0, , , 1.17E-13, 3.89982E-09
DataValue, 5.4, 4, 5.02316E-09, 9.6000000000000007E-14, 5.02316E-09, 7.0874254846171048E-05, 0, , , 9.6000000000000007E-14, 5.02316E-09
DataValue, 5.6000000000000005, 4, 6.49322E-09, 1.6600000000000003E-13, 6.49322E-09, 8.058051873747152E-05, 0, , , 1.6600000000000003E-13, 6.49322E-09
DataValue, 5.8, 4, 8.01E-09, 4.1E-14, 8.01E-09, 8.94986033410578E-05, 0, , , 4.1E-14, 8.01E-09
DataValue, 6, 4, 9.9062E-09, 5.1000000000000004E-14, 9.9062E-09, 9.952989500647532E-05, 0, , , 5.1000000000000004E-14, 9.9062E-09
DataValue, 6.2, 4, 1.2158299999999998E-08, 1.25E-13, 1.2158299999999998E-08, 0.00011026468156213937, 0, , , 1.25E-13, 1.2158299999999998E-08
DataValue, 6.4, 4, 1.4493899999999999E-08, 3.1E-14, 1.4493899999999999E-08, 0.00012039061425210853, 0, , , 3.1E-14, 1.4493899999999999E-08
DataValue, 6.6000000000000005, 4, 1.6433999999999997E-08, 1.19E-13, 1.6433999999999997E-08, 0.00012819516371532897, 0, , , 1.19E-13, 1.6433999999999997E-08
DataValue, 6.8, 4, 1.8242E-08, 8.8E-14, 1.8242E-08, 0.00013506294828708574, 0, , , 8.8E-14, 1.8242E-08
DataValue, 7, 4, 1.95479E-08, -1.4500000000000001E-13, 1.95479E-08, 0.00013981380475475231, 0, , , -1.4500000000000001E-13, 1.95479E-08
DataValue, 7.2, 4, 2.00193E-08, -5.0300000000000008E-13, 2.00193E-08, 0.00014148957558774426, 0, , , -5.0300000000000008E-13, 2.00193E-08
DataValue, 7.4, 4, 2.0128199999999998E-08, -5.4700000000000009E-13, 2.0128199999999998E-08, 0.0001418738876608377, 0, , , -5.4700000000000009E-13, 2.0128199999999998E-08
DataValue, 7.6000000000000005, 4, 2.0128999999999998E-08, -1.28E-13, 2.0128999999999998E-08, 0.00014187670703818861, -0, , , -1.28E-13, 2.0128999999999998E-08
DataValue, 7.8, 4, 2.01158E-08, -2.69E-13, 2.01158E-08, 0.0001418301801451299, -0, , , -2.69E-13, 2.01158E-08
DataValue, 8, 4, 2.0093199999999998E-08, -7.03E-13, 2.0093199999999998E-08, 0.00014175048500798858, -0, , , -7.03E-13, 2.0093199999999998E-08
DataValue, 8.2, 4, 2.0083299999999998E-08, -2.05E-13, 2.0083299999999998E-08, 0.00014171556019012166, -0, , , -2.05E-13, 2.0083299999999998E-08
DataValue, 8.4, 4, 2.0075199999999997E-08, -1.6800000000000002E-13, 2.0075199999999997E-08, 0.00014168697893596292, -0, , , -1.6800000000000002E-13, 2.0075199999999997E-08
DataValue, 8.6, 4, 2.0059899999999997E-08, -2E-13, 2.0059899999999997E-08, 0.00014163297638615096, -0, , , -2E-13, 2.0059899999999997E-08
DataValue, 8.8, 4, 2.00583E-08, -2.23E-13, 2.00583E-08, 0.00014162732787142458, -0, , , -2.23E-13, 2.00583E-08
DataValue, 9, 4, 2.0045099999999997E-08, -6.9000000000000009E-14, 2.0045099999999997E-08, 0.00014158071902628549, -0, , , -6.9000000000000009E-14, 2.0045099999999997E-08
DataValue, 9.2000000000000011, 4, 2.00253E-08, -5.6E-13, 2.00253E-08, 0.00014151077697475905, -0, , , -5.6E-13, 2.00253E-08
DataValue, 9.4, 4, 2.0022699999999997E-08, -4.7E-13, 2.0022699999999997E-08, 0.00014150159009707275, -0, , , -4.7E-13, 2.0022699999999997E-08
DataValue, 9.6, 4, 2.0012499999999998E-08, -5.23E-13, 2.0012499999999998E-08, 0.00014146554350795106, -0, , , -5.23E-13, 2.0012499999999998E-08
DataValue, 9.8, 4, 2.00116E-08, -5.63E-13, 2.00116E-08, 0.00014146236248557424, -0, , , -5.63E-13, 2.00116E-08
DataValue, 10, 4, 2.0000499999999998E-08, -1.7E-14, 2.0000499999999998E-08, 0.00014142312399321406, -0, , , -1.7E-14, 2.0000499999999998E-08
DataValue, 10.200000000000001, 4, 1.9990199999999997E-08, -7.31E-13, 1.9990199999999997E-08, 0.00014138670375958269, -0, , , -7.31E-13, 1.9990199999999997E-08
DataValue, 10.4, 4, 1.99856E-08, -8.530000000000001E-13, 1.99856E-08, 0.00014137043538165964, -0, , , -8.530000000000001E-13, 1.99856E-08
DataValue, 10.6, 4, 1.99813E-08, -1.0890000000000001E-12, 1.99813E-08, 0.00014135522629177882, -0, , , -1.0890000000000001E-12, 1.99813E-08
DataValue, 10.8, 4, 1.99766E-08, -4.7900000000000008E-13, 1.99766E-08, 0.00014133860053078211, -0, , , -4.7900000000000008E-13, 1.99766E-08
DataValue, 11, 4, 1.9963099999999997E-08, -3.39E-13, 1.9963099999999997E-08, 0.00014129083480537581, -0, , , -3.39E-13, 1.9963099999999997E-08
DataValue, 11.200000000000001, 4, 1.9961199999999997E-08, -8.3900000000000006E-13, 1.9961199999999997E-08, 0.00014128411092546818, -0, , , -8.3900000000000006E-13, 1.9961199999999997E-08
DataValue, 11.4, 4, 1.9953699999999998E-08, -6.77E-13, 1.9953699999999998E-08, 0.00014125756616903745, -0, , , -6.77E-13, 1.9953699999999998E-08
DataValue, 11.6, 4, 1.9949399999999997E-08, -5.5100000000000008E-13, 1.9949399999999997E-08, 0.00014124234492530913, -0, , , -5.5100000000000008E-13, 1.9949399999999997E-08
DataValue, 11.8, 4, 1.9947399999999998E-08, -3.8100000000000004E-13, 1.9947399999999998E-08, 0.00014123526471812909, -0, , , -3.8100000000000004E-13, 1.9947399999999998E-08
DataValue, 12, 4, 1.99449E-08, -3.5500000000000005E-13, 1.99449E-08, 0.00014122641395999545, -0, , , -3.5500000000000005E-13, 1.99449E-08
DataValue, 12.200000000000001, 4, 1.99361E-08, -9.28E-13, 1.99361E-08, 0.00014119525487777553, -0, , , -9.28E-13, 1.99361E-08
DataValue, 12.4, 4, 1.99359E-08, -1.9600000000000002E-13, 1.99359E-08, 0.00014119454663690095, -0, , , -1.9600000000000002E-13, 1.99359E-08
DataValue, 12.6, 4, 1.99345E-08, -2.4000000000000004E-13, 1.99345E-08, 0.00014118958885130304, 0, , , -2.4000000000000004E-13, 1.99345E-08
DataValue, 12.8, 4, 1.9936599999999997E-08, -5.2900000000000007E-13, 1.9936599999999997E-08, 0.00014119702546441974, -0, , , -5.2900000000000007E-13, 1.9936599999999997E-08
DataValue, 13, 4, 1.9928099999999997E-08, -1.5100000000000001E-13, 1.9928099999999997E-08, 0.00014116692247123614, -0, , , -1.5100000000000001E-13, 1.9928099999999997E-08
DataValue, 13.200000000000001, 4, 1.99184E-08, -2.48E-13, 1.99184E-08, 0.00014113256179918227, -0, , , -2.48E-13, 1.99184E-08
DataValue, 13.4, 4, 1.99159E-08, -4.5200000000000004E-13, 1.99159E-08, 0.00014112370459990059, -0, , , -4.5200000000000004E-13, 1.99159E-08
DataValue, 13.6, 4, 1.99104E-08, -4.2800000000000004E-13, 1.99104E-08, 0.00014110421680445983, -0, , , -4.2800000000000004E-13, 1.99104E-08
DataValue, 13.8, 4, 1.9910899999999997E-08, -3.87E-13, 1.9910899999999997E-08, 0.00014110598853344248, -0, , , -3.87E-13, 1.9910899999999997E-08
DataValue, 14, 4, 1.9900099999999998E-08, -4.4400000000000003E-13, 1.9900099999999998E-08, 0.00014106771423681608, -0, , , -4.4400000000000003E-13, 1.9900099999999998E-08
DataValue, 14.200000000000001, 4, 1.9900999999999997E-08, -4.95E-13, 1.9900999999999997E-08, 0.00014107090415815728, -0, , , -4.95E-13, 1.9900999999999997E-08
DataValue, 14.4, 4, 1.98978E-08, -2.7500000000000004E-13, 1.98978E-08, 0.00014105956188787769, -0, , , -2.7500000000000004E-13, 1.98978E-08
DataValue, 14.6, 4, 1.98929E-08, -2.79E-13, 1.98929E-08, 0.00014104219226883849, -0, , , -2.79E-13, 1.98929E-08
DataValue, 14.8, 4, 1.9886999999999998E-08, -5.82E-13, 1.9886999999999998E-08, 0.00014102127499069066, -0, , , -5.82E-13, 1.9886999999999998E-08
DataValue, 15, 4, 1.9884899999999997E-08, -4.87E-13, 1.9884899999999997E-08, 0.0001410138291090629, -0, , , -4.87E-13, 1.9884899999999997E-08
DataValue, 15.200000000000001, 4, 1.9879899999999998E-08, -1.8000000000000002E-13, 1.9879899999999998E-08, 0.00014099609923682286, -0, , , -1.8000000000000002E-13, 1.9879899999999998E-08
DataValue, 15.4, 4, 1.9882599999999998E-08, -5.16E-13, 1.9882599999999998E-08, 0.00014100567364471543, -0, , , -5.16E-13, 1.9882599999999998E-08
DataValue, 15.6, 4, 1.9876399999999997E-08, -2.1300000000000003E-13, 1.9876399999999997E-08, 0.00014098368699959579, -0, , , -2.1300000000000003E-13, 1.9876399999999997E-08
DataValue, 15.8, 4, 1.98801E-08, -4.75E-13, 1.98801E-08, 0.00014099680847451832, -0, , , -4.75E-13, 1.98801E-08
DataValue, 16, 4, 1.9874199999999997E-08, -4.1500000000000005E-13, 1.9874199999999997E-08, 0.0001409758844625562, -0, , , -4.1500000000000005E-13, 1.9874199999999997E-08
DataValue, 16.2, 4, 1.987E-08, -5.2400000000000009E-13, 1.987E-08, 0.00014096098751072936, -0, , , -5.2400000000000009E-13, 1.987E-08
DataValue, 16.4, 4, 1.9867E-08, -3.03E-13, 1.9867E-08, 0.00014095034586690449, -0, , , -3.03E-13, 1.9867E-08
DataValue, 16.6, 4, 1.9861299999999998E-08, -3.76E-13, 1.9861299999999998E-08, 0.00014093012452985344, -0, , , -3.76E-13, 1.9861299999999998E-08
DataValue, 16.8, 4, 1.98639E-08, -2.1600000000000001E-13, 1.98639E-08, 0.00014093934865749876, -0, , , -2.1600000000000001E-13, 1.98639E-08
DataValue, 17, 4, 1.9860599999999997E-08, -1.53E-13, 1.9860599999999997E-08, 0.00014092764100771715, -0, , , -1.53E-13, 1.9860599999999997E-08
DataValue, 17.2, 4, 1.9857299999999997E-08, -3.6100000000000003E-13, 1.9857299999999997E-08, 0.00014091593238523456, -0, , , -3.6100000000000003E-13, 1.9857299999999997E-08
DataValue, 17.400000000000002, 4, 1.9853699999999997E-08, -3.3E-13, 1.9853699999999997E-08, 0.00014090315823287993, -0, , , -3.3E-13, 1.9853699999999997E-08
DataValue, 17.6, 4, 1.98489E-08, -2.0800000000000002E-13, 1.98489E-08, 0.00014088612422804455, -0, , , -2.0800000000000002E-13, 1.98489E-08
DataValue, 17.8, 4, 1.9849099999999997E-08, -3.7300000000000003E-13, 1.9849099999999997E-08, 0.00014088683401936462, -0, , , -3.7300000000000003E-13, 1.9849099999999997E-08
DataValue, 18, 4, 1.98314E-08, -1.19E-13, 1.98314E-08, 0.00014082400363574387, -0, , , -1.19E-13, 1.98314E-08
DataValue, 18.2, 4, 1.9830199999999997E-08, -1.3300000000000001E-13, 1.9830199999999997E-08, 0.00014081974293400764, -0, , , -1.3300000000000001E-13, 1.9830199999999997E-08
DataValue, 18.400000000000002, 4, 1.9823299999999998E-08, -3.06E-13, 1.9823299999999998E-08, 0.00014079524139685971, -0, , , -3.06E-13, 1.9823299999999998E-08
DataValue, 18.6, 4, 1.9829399999999997E-08, -7.4E-14, 1.9829399999999997E-08, 0.00014081690239456341, 0, , , -7.4E-14, 1.9829399999999997E-08
DataValue, 18.8, 4, 1.98248E-08, -2.83E-13, 1.98248E-08, 0.00014080056818067176, -0, , , -2.83E-13, 1.98248E-08
DataValue, 19, 4, 1.9825299999999997E-08, -1.99E-13, 1.9825299999999997E-08, 0.00014080234373049333, -0, , , -1.99E-13, 1.9825299999999997E-08
DataValue, 19.2, 4, 1.98144E-08, -1.9500000000000003E-13, 1.98144E-08, 0.00014076363166670573, -0, , , -1.9500000000000003E-13, 1.98144E-08
